! PocketVna 1.81  pocketvna.com
! Live measurements ((Reflection-S11, Transmission-S21) Logarithmic 2000000000-3000000000/801 calibrated)
# GHz S DB R 50
! GHz                 dBS11                     <S11                    dBS21                  <S21                     dBS12                     <S12                    dBS22                  <S22                     
2                     -8.3207412959259841       157.01166767637329      -20.858927456420723       -131.33420691889427     -inf                   0                        -inf                   0                        
2.0010140160000001    -8.8378373851172896       151.66874974242793      -21.380069922106983       -134.22051271992478     -inf                   0                        -inf                   0                        
2.0020284159999999    -8.7842946051673625       143.45693451311718      -21.747459410261634       -138.42026937259223     -inf                   0                        -inf                   0                        
2.0030434559999999    -8.1694309860711876       133.58458950268468      -22.150372128090822       -142.66107818373246     -inf                   0                        -inf                   0                        
2.0040588800000001    -7.6278645213530414       124.69032268492408      -22.379301143281968       -147.53267423890225     -inf                   0                        -inf                   0                        
2.0050746880000001    -7.683839616785491        116.69318257448066      -23.065273197724121       -151.14283111390796     -inf                   0                        -inf                   0                        
2.0060911360000002    -7.6231902134920944       104.63830272870467      -23.269986925327714       -154.46371073676937     -inf                   0                        -inf                   0                        
2.007108224           -7.2925342946340264       98.626809656037025      -22.513006983901256       -158.70547862842184     -inf                   0                        -inf                   0                        
2.0081258239999999    -7.6069823908868104       89.793932538429587      -23.400323611693857       -161.47005272886238     -inf                   0                        -inf                   0                        
2.0091438080000001    -7.380608539710706        80.982336652218891      -24.172762071662667       -167.88087476056506     -inf                   0                        -inf                   0                        
2.0101623040000001    -7.1753911210024457       74.840539149005494      -24.819640395952337       -176.5823029326877      -inf                   0                        -inf                   0                        
2.0111813120000002    -6.982358348473662        62.550805748586413      -24.349985376855862       177.21358698930834      -inf                   0                        -inf                   0                        
2.0122010879999999    -6.4696802605252248       54.801757863529168      -24.611928911903838       176.51283468353523      -inf                   0                        -inf                   0                        
2.0132209919999999    -6.554424197250448        47.018461953442696      -24.821905936775256       171.47678771227817      -inf                   0                        -inf                   0                        
2.014241664           -6.0833348269497902       40.456272825433999      -25.288078402569578       170.02964162110837      -inf                   0                        -inf                   0                        
2.0152628479999999    -5.9513027463507226       31.718903709949181      -24.820183754755615       168.91375404558804      -inf                   0                        -inf                   0                        
2.016284416           -5.3923449764119082       22.114303290126799      -25.432678524269853       159.25806938842175      -inf                   0                        -inf                   0                        
2.0173067520000001    -5.7268984477386411       21.708254138048787      -25.384165510555977       151.98089813838672      -inf                   0                        -inf                   0                        
2.0183293440000001    -5.27064283258738         14.909043194753822      -24.696842135515741       145.50903675574256      -inf                   0                        -inf                   0                        
2.0193527040000001    -4.2546800298256411       4.4232973049531541      -25.695645994676703       143.45556342717802      -inf                   0                        -inf                   0                        
2.0203764479999999    -3.9296350781396727       -2.4606010578715924     -25.693943467354995       140.39139785670375      -inf                   0                        -inf                   0                        
2.0214007039999999    -3.5431170499757485       -6.9703478406349193     -25.988247496314905       128.36795336153276      -inf                   0                        -inf                   0                        
2.0224254720000001    -3.7489269974594128       -12.025249234039697     -26.365257752718318       126.76020005215211      -inf                   0                        -inf                   0                        
2.0234506240000001    -2.9911990103065595       -17.517871445406374     -25.380903242079441       123.73035533170371      -inf                   0                        -inf                   0                        
2.0244765440000001    -2.6478070781553815       -21.917309930351397     -25.528123385296592       116.88964692671742      -inf                   0                        -inf                   0                        
2.02550272            -3.2762249023691785       -24.687379344714248     -26.378012284158          112.82465417705157      -inf                   0                        -inf                   0                        
2.026529536           -2.8665805311622177       -29.479385737024735     -26.610349789919979       103.38782721132037      -inf                   0                        -inf                   0                        
2.02755712            -1.8964772628642184       -32.82241907172159      -26.308010177037438       96.856719046986456      -inf                   0                        -inf                   0                        
2.0285849599999999    -1.8347567925342529       -35.847378774941916     -26.492388975358271       89.000458165432377      -inf                   0                        -inf                   0                        
2.0296133119999999    -2.4380048376424988       -39.935830390175056     -26.587163331291865       80.631712643828223      -inf                   0                        -inf                   0                        
2.0306423040000001    -1.4354187857793925       -40.509535811727517     -26.441714983618752       81.915003387863095      -inf                   0                        -inf                   0                        
2.031671808           -1.1576679270888035       -44.047947704841711     -25.277449869013683       74.194496774344302      -inf                   0                        -inf                   0                        
2.0327016960000002    -1.243379183828758        -45.592982743242715     -25.960275896575425       72.420120462245009      -inf                   0                        -inf                   0                        
2.033732224           -1.4287939529184615       -49.006844416580087     -25.408212674026824       69.283354568590468      -inf                   0                        -inf                   0                        
2.034763136           -1.1550267576916817       -51.265756458786598     -25.483912893295781       61.32405026169922       -inf                   0                        -inf                   0                        
2.0357946880000002    -0.99788056307654194      -53.262090785890045     -24.814068778259433       56.532699454355239      -inf                   0                        -inf                   0                        
2.03682688            -1.4954091963547522       -57.926277204494255     -24.064814628198931       54.599036006658892      -inf                   0                        -inf                   0                        
2.0378594560000001    -1.5787576550578166       -59.499655629108496     -23.259908898343113       48.381099574309722      -inf                   0                        -inf                   0                        
2.0388925439999999    -1.206551571900742        -59.169219744550929     -22.950545862303638       46.117910408658879      -inf                   0                        -inf                   0                        
2.0399260159999999    -1.3883896512907152       -61.968315559411053     -22.711666221860138       42.667253750635382      -inf                   0                        -inf                   0                        
2.040960256           -1.2505154528036804       -64.613280882683966     -22.540945803043684       39.262580973944573      -inf                   0                        -inf                   0                        
2.0419950079999998    -1.3529932926548016       -68.133904830927548     -21.893966586175864       35.334202198255099      -inf                   0                        -inf                   0                        
2.0430302720000002    -1.3329305546581369       -68.668621393648223     -21.511253861862961       32.820159812335056      -inf                   0                        -inf                   0                        
2.04406592            -1.3305190352445384       -69.684550497711385     -20.822343565897619       26.007871607294561      -inf                   0                        -inf                   0                        
2.0451020799999999    -1.6824224388761104       -73.55005667468896      -20.901804014728974       23.559958515713049      -inf                   0                        -inf                   0                        
2.0461390079999999    -1.6208297788316459       -74.110443375874397     -20.131634646266228       22.661578429295929      -inf                   0                        -inf                   0                        
2.0471763200000002    -1.6431011430798936       -75.144688568468794     -20.099255861945785       16.507517847694668      -inf                   0                        -inf                   0                        
2.0482141440000001    -1.6272965647650064       -76.252768439362882     -19.569328309382364       13.597769462532622      -inf                   0                        -inf                   0                        
2.0492524799999998    -1.7357362593818484       -80.506498209603592     -19.614605544876206       11.849753561411745      -inf                   0                        -inf                   0                        
2.0502913280000001    -1.8401104063894764       -81.767833674112268     -19.907943469608231       8.887979053106621       -inf                   0                        -inf                   0                        
2.0513308160000001    -1.9913659488532141       -84.221589559714189     -19.534440696900322       5.8107125895330318      -inf                   0                        -inf                   0                        
2.0523708159999998    -2.2222746518275818       -87.192626085427605     -19.863018942005802       3.1895579555298896      -inf                   0                        -inf                   0                        
2.0534112000000002    -2.353512814715681        -90.22780706567373      -19.968422854055497       1.7478398286071324      -inf                   0                        -inf                   0                        
2.0544522239999998    -2.5517941422037858       -94.008532177417251     -20.18762483739275        -1.4133960232332012     -inf                   0                        -inf                   0                        
2.055493888           -2.6236010726261179       -96.093991654520309     -19.938915616527744       -3.8282163237257709     -inf                   0                        -inf                   0                        
2.0565356800000001    -2.6716602429671448       -99.983468906605808     -20.451364157382098       -8.7313879724933727     -inf                   0                        -inf                   0                        
2.0575783680000002    -2.6989451039250727       -100.48111613832236     -19.936207762444369       -11.620205193468875     -inf                   0                        -inf                   0                        
2.05862144            -2.676707730529067        -103.63776590813876     -20.068036583736585       -13.277710555436062     -inf                   0                        -inf                   0                        
2.059665152           -2.8178335476203231       -108.05871910189465     -20.731897416456619       -19.503526464420585     -inf                   0                        -inf                   0                        
2.0607092480000002    -2.8635102129768226       -112.06779177769877     -20.529316745809517       -22.968344141391242     -inf                   0                        -inf                   0                        
2.0617539840000001    -3.1591374566141655       -115.19510785229329     -20.725828993789349       -23.99231466100278      -inf                   0                        -inf                   0                        
2.0627992320000001    -3.2037567999562446       -119.44302081140283     -21.346589276014541       -29.924006374134809     -inf                   0                        -inf                   0                        
2.063844864           -3.2354960812280078       -123.38840470642143     -22.046870189188837       -32.702841097368179     -inf                   0                        -inf                   0                        
2.0648913919999998    -3.5131863581896319       -126.07742760875638     -21.392118084708965       -35.683860897634617     -inf                   0                        -inf                   0                        
2.065938048           -3.3390279413392374       -129.10788726210913     -22.180607971096919       -43.526540734200339     -inf                   0                        -inf                   0                        
2.0669853439999999    -3.2356640433108459       -132.22212423913425     -22.273468171755315       -46.378909173426329     -inf                   0                        -inf                   0                        
2.0680332799999999    -3.2842062374691072       -136.31499370946622     -22.872013291671056       -54.581060777413562     -inf                   0                        -inf                   0                        
2.069081728           -3.1429923659352932       -139.83449524641352     -23.108295297299307       -59.46914841061956      -inf                   0                        -inf                   0                        
2.07013056            -3.1026542667979475       -143.94147784038395     -23.076119538519094       -63.186066396829681     -inf                   0                        -inf                   0                        
2.0711801599999999    -2.9835374074706316       -147.65389239989236     -23.767438089290927       -65.943194729643608     -inf                   0                        -inf                   0                        
2.0722301440000002    -2.891458201095864        -150.88332888121414     -23.79633850686341        -70.463913589782095     -inf                   0                        -inf                   0                        
2.0732805120000002    -3.2216929120311599       -156.08100037952903     -24.895128154922538       -74.675400562935408     -inf                   0                        -inf                   0                        
2.0743317760000002    -3.1396054400446163       -159.06806862762383     -25.136596554887255       -76.732242805386903     -inf                   0                        -inf                   0                        
2.075383424           -3.0024978588744959       -160.94345743456927     -24.130594751809213       -81.229782275940636     -inf                   0                        -inf                   0                        
2.0764355839999999    -2.9676121422133406       -164.9458230353888      -24.935278962051868       -86.781133078422471     -inf                   0                        -inf                   0                        
2.0774881280000002    -3.2353584842955869       -168.8276824550386      -24.955247512405364       -94.23649472642218      -inf                   0                        -inf                   0                        
2.078541312           -3.3458919127584301       -174.0796635734103      -26.332497586104815       -97.369834826057826     -inf                   0                        -inf                   0                        
2.079595136           -3.2829483905474466       -176.45965777692561     -26.994330591269637       -102.82644343487163     -inf                   0                        -inf                   0                        
2.0806493439999998    -3.1455481432686527       179.69663567513987      -26.249923394257941       -105.71464902905453     -inf                   0                        -inf                   0                        
2.0817041920000001    -3.0702535730587064       175.43974454506784      -26.255343602523702       -116.70736584291973     -inf                   0                        -inf                   0                        
2.0827594239999998    -3.3504371217282207       168.72218595906486      -26.650685623619705       -120.87413223652817     -inf                   0                        -inf                   0                        
2.083815296           -3.5863762679459494       166.00423595453569      -26.782677894911725       -133.08577486626731     -inf                   0                        -inf                   0                        
2.0848718079999999    -3.6546745146068105       160.38867632911666      -27.856616791724353       -133.52490800051694     -inf                   0                        -inf                   0                        
2.0859287040000001    -3.8841570742844111       157.98528847723523      -27.085489956327944       -142.09727216236277     -inf                   0                        -inf                   0                        
2.0869862399999999    -3.8738821136324812       149.98282793834719      -26.759765258365221       -144.23399995630081     -inf                   0                        -inf                   0                        
2.0880441599999999    -4.0021012893399499       144.79616351075438      -27.863147466487312       -156.44615265113231     -inf                   0                        -inf                   0                        
2.0891027200000001    -4.0763434157342822       136.56806097588765      -27.448703811648127       -158.03443229736084     -inf                   0                        -inf                   0                        
2.090161792           -4.0626307881135544       131.89715872393879      -28.297182648665363       -163.44359281498123     -inf                   0                        -inf                   0                        
2.0912216319999999    -4.5327142279392953       122.82015428957874      -27.254330795769004       -178.56096465332575     -inf                   0                        -inf                   0                        
