! PocketVna 1.81  pocketvna.com
! Live measurements ((Reflection-S11, Transmission-S21) Logarithmic 2000000000-3000000000/801 calibrated)
# GHz S DB R 50
! GHz                 dBS11                    <S11                    dBS21                  <S21                    dBS12                    <S12                    dBS22                  <S22                    
2                     -3.441658898075024       154.65695333102886      -40.660333006018732      -149.63130785720537     -inf                   0                       -inf                   0                       
2.0010140160000001    -3.6415862549816347      148.11460345053629      -40.108167322893955      -133.33860419223819     -inf                   0                       -inf                   0                       
2.0020284159999999    -3.4767060173025026      141.52636943366034      -40.812467097952378      -138.35315770374561     -inf                   0                       -inf                   0                       
2.0030434559999999    -3.2320456401390798      134.36911778699479      -40.089401239329455      -120.92749507033679     -inf                   0                       -inf                   0                       
2.0040588800000001    -3.2148217116290052      126.81776847404169      -41.586592990474422      -133.05461663172099     -inf                   0                       -inf                   0                       
2.0050746880000001    -3.0096658032387231      119.96216523352663      -44.502146963524105      -154.04230763976418     -inf                   0                       -inf                   0                       
2.0060911360000002    -2.9975976597856393      112.7080495024815       -55.397723554382196      125.14531343127292      -inf                   0                       -inf                   0                       
2.007108224           -2.6823417552183604      106.76030969486588      -47.832299093179159      169.00192964623818      -inf                   0                       -inf                   0                       
2.0081258239999999    -2.7504811516334322      98.859019250905561      -57.925582475914183      -63.102476342403158     -inf                   0                       -inf                   0                       
2.0091438080000001    -3.1533522632021564      90.454344457641284      -62.024007218607935      125.41505323697629      -inf                   0                       -inf                   0                       
2.0101623040000001    -3.0559595754137532      83.169733869103069      -45.155668172824839      61.099135862924378      -inf                   0                       -inf                   0                       
2.0111813120000002    -3.0311185587075999      74.92014678866424       -47.211621316761956      74.533489173065121      -inf                   0                       -inf                   0                       
2.0122010879999999    -3.2655469909304449      67.029579924671481      -42.313114493395084      53.927120858363146      -inf                   0                       -inf                   0                       
2.0132209919999999    -3.1666585271980443      60.074422611463987      -47.585359423639069      -14.205411194610621     -inf                   0                       -inf                   0                       
2.014241664           -3.2204058233997883      52.435430926747316      -45.874989513118692      -20.252149641873139     -inf                   0                       -inf                   0                       
2.0152628479999999    -3.2000388984041588      45.164023296642171      -44.43854241663729       -14.58218786230727      -inf                   0                       -inf                   0                       
2.016284416           -2.9626408117267076      36.673301551638318      -46.203852387772443      13.140415617613581      -inf                   0                       -inf                   0                       
2.0173067520000001    -2.9606415181776957      29.062133865088835      -46.615170097709409      54.788957448281778      -inf                   0                       -inf                   0                       
2.0183293440000001    -2.9521757793201386      21.883464630319033      -40.507988045173242      -1.5768053158390964     -inf                   0                       -inf                   0                       
2.0193527040000001    -2.8914134779037908      15.308801265524973      -38.501344106129913      -21.332944759371696     -inf                   0                       -inf                   0                       
2.0203764479999999    -2.7083478530667571      7.9896160475381954      -38.170210100424306      2.0039369967505709      -inf                   0                       -inf                   0                       
2.0214007039999999    -2.5195524663813176      3.3405100488314368      -38.845614676944528      -7.380580517740543      -inf                   0                       -inf                   0                       
2.0224254720000001    -2.1849638610271045      -3.566721495213288      -35.821063470891104      -3.7544294807403555     -inf                   0                       -inf                   0                       
2.0234506240000001    -2.1000599613252353      -8.2520722814307952     -36.788332279995579      14.258246331352717      -inf                   0                       -inf                   0                       
2.0244765440000001    -2.087888568474185       -12.821722002254626     -35.593185354010565      0.92476060274450789     -inf                   0                       -inf                   0                       
2.02550272            -1.9869758907482613      -16.973845680816691     -36.932527806154113      -2.293570898796597      -inf                   0                       -inf                   0                       
2.026529536           -1.8039267119570737      -21.936674235086294     -34.742145977667974      -3.1306023789374788     -inf                   0                       -inf                   0                       
2.02755712            -1.7746208068322711      -24.937607494077469     -33.058592099118286      -5.1142568349505231     -inf                   0                       -inf                   0                       
2.0285849599999999    -1.4473159616379061      -28.883856931371263     -34.426112624358801      2.3094977422362657      -inf                   0                       -inf                   0                       
2.0296133119999999    -1.5073643308640097      -31.967460119251161     -34.230369848147909      -12.196267068082246     -inf                   0                       -inf                   0                       
2.0306423040000001    -1.1795289891926966      -35.377019234885019     -33.608808498932717      -8.192010220366047      -inf                   0                       -inf                   0                       
2.031671808           -1.1708344303577733      -38.454037910601528     -33.448631661207358      -13.322648722400315     -inf                   0                       -inf                   0                       
2.0327016960000002    -1.0489340795159849      -41.161408058811148     -34.300881528161234      -18.57136536064262      -inf                   0                       -inf                   0                       
2.033732224           -1.0022712724003382      -43.991650079706133     -32.796495973985039      -17.159333329551238     -inf                   0                       -inf                   0                       
2.034763136           -0.95974836298787025     -46.852790391901316     -32.86387293364789       -22.365669613436665     -inf                   0                       -inf                   0                       
2.0357946880000002    -1.0869965427441139      -49.435523970133929     -34.135407476785595      -18.314129924343725     -inf                   0                       -inf                   0                       
2.03682688            -1.0146250358493913      -51.529598508317179     -33.161483577516556      -14.018116739193816     -inf                   0                       -inf                   0                       
2.0378594560000001    -1.1522742153724217      -53.994316424736958     -32.591548249609161      -15.154426768118315     -inf                   0                       -inf                   0                       
2.0388925439999999    -1.2682479352919918      -56.674949817068182     -34.129450641790669      -18.295238342175516     -inf                   0                       -inf                   0                       
2.0399260159999999    -1.2238981677157159      -59.073432391451739     -33.213937055717082      -14.570529185145233     -inf                   0                       -inf                   0                       
2.040960256           -1.2407773645473033      -62.14577984329884      -33.756646143131299      -14.309844463693606     -inf                   0                       -inf                   0                       
2.0419950079999998    -1.3365636592087695      -64.360442258731808     -33.985856210410837      -29.668545006268662     -inf                   0                       -inf                   0                       
2.0430302720000002    -1.357358927218878       -66.676910289133588     -31.808781244132746      -30.857493716882729     -inf                   0                       -inf                   0                       
2.04406592            -1.4138772773736159      -68.246962142076171     -32.826411434255604      -31.478535766474607     -inf                   0                       -inf                   0                       
2.0451020799999999    -1.5431510006700464      -70.347109529220546     -32.349400897464321      -31.895705598047996     -inf                   0                       -inf                   0                       
2.0461390079999999    -1.67387744534816        -72.343397645375958     -33.065224281035313      -31.07729048934803      -inf                   0                       -inf                   0                       
2.0471763200000002    -1.7173267449849361      -74.152911312969138     -33.142608959992202      -33.13527035976233      -inf                   0                       -inf                   0                       
2.0482141440000001    -1.7131152128292428      -76.035284257488811     -32.821863630056846      -34.043134819841121     -inf                   0                       -inf                   0                       
2.0492524799999998    -1.8082796889623498      -78.898434484441211     -33.104085562960798      -47.179795267759275     -inf                   0                       -inf                   0                       
2.0502913280000001    -1.8753472631531407      -81.054324835544904     -34.570217420329726      -44.486904709883405     -inf                   0                       -inf                   0                       
2.0513308160000001    -2.0054426847155225      -83.742304436971239     -34.708457366111531      -51.953059543358826     -inf                   0                       -inf                   0                       
2.0523708159999998    -2.2256760391631261      -87.540930982971361     -36.037202905487462      -57.142556064246627     -inf                   0                       -inf                   0                       
2.0534112000000002    -2.3137806965208081      -90.740000947279512     -37.091840723960871      -52.918045982918798     -inf                   0                       -inf                   0                       
2.0544522239999998    -2.4388896140667491      -93.577422996900395     -36.357826985039708      -51.848057635305452     -inf                   0                       -inf                   0                       
2.055493888           -2.5724182824115305      -97.119284190664928     -36.701653225329153      -74.121651239325786     -inf                   0                       -inf                   0                       
2.0565356800000001    -2.5616259582714074      -99.45279985980919      -36.997545201878566      -72.014724376794931     -inf                   0                       -inf                   0                       
2.0575783680000002    -2.5920484755743933      -101.95362344967664     -36.313968028085029      -94.564643638541412     -inf                   0                       -inf                   0                       
2.05862144            -2.6464775156665277      -105.63019466904667     -36.113179598639292      -108.17290927498232     -inf                   0                       -inf                   0                       
2.059665152           -2.695316908960399       -109.25053237812403     -36.085985647933697      -97.703447197263529     -inf                   0                       -inf                   0                       
2.0607092480000002    -2.8003194557075011      -111.99124488855846     -38.037768422621248      -101.87621126271749     -inf                   0                       -inf                   0                       
2.0617539840000001    -2.8134420462012244      -116.47007018019833     -38.242195729059247      -100.6632303640956      -inf                   0                       -inf                   0                       
2.0627992320000001    -2.900262711157664       -120.27008410692142     -39.695649522140769      -114.15686794316024     -inf                   0                       -inf                   0                       
2.063844864           -2.9004764555652778      -124.18556355760708     -37.208923229319034      -132.83625222288146     -inf                   0                       -inf                   0                       
2.0648913919999998    -2.9153912029755502      -128.04293012948412     -36.843727518551496      -141.57422840849472     -inf                   0                       -inf                   0                       
2.065938048           -2.805924230317292       -131.00662830909633     -35.273383979265112      -144.93386576034081     -inf                   0                       -inf                   0                       
2.0669853439999999    -2.7343079589465646      -134.18201679206504     -36.577615378676256      -139.31169916992641     -inf                   0                       -inf                   0                       
2.0680332799999999    -2.8552868924831554      -136.24287390599511     -40.793538227566074      -137.61911850354858     -inf                   0                       -inf                   0                       
2.069081728           -2.710022308139699       -140.33830917345784     -41.855829712415975      -139.22051112978161     -inf                   0                       -inf                   0                       
2.07013056            -2.6686669306433117      -143.78185002560465     -43.00893548844855       -152.33581123244363     -inf                   0                       -inf                   0                       
2.0711801599999999    -2.6305786708053174      -147.55338375513512     -42.630582227627507      172.37514970464466      -inf                   0                       -inf                   0                       
2.0722301440000002    -2.4262963326361318      -151.76363837043772     -41.501205569420748      160.47242071068811      -inf                   0                       -inf                   0                       
2.0732805120000002    -2.3928953517028391      -154.75525702915101     -38.065776425066773      129.83388368960078      -inf                   0                       -inf                   0                       
2.0743317760000002    -2.4573836821484574      -157.64134045039827     -38.589155991693154      141.76230877527095      -inf                   0                       -inf                   0                       
2.075383424           -2.3408932272398686      -161.3315373471907      -39.751048755546897      145.51082958246676      -inf                   0                       -inf                   0                       
2.0764355839999999    -2.4248099408805208      -164.56993801590343     -39.613295727129007      162.05826629344841      -inf                   0                       -inf                   0                       
2.0774881280000002    -2.2629568768774826      -169.03566129740216     -40.364936964628264      133.98290971977696      -inf                   0                       -inf                   0                       
2.078541312           -2.4349511256480358      -172.78853474243044     -37.759441101856474      101.96449974713788      -inf                   0                       -inf                   0                       
2.079595136           -2.5076310562080351      -176.15846195974277     -34.286116082975234      112.47981769025472      -inf                   0                       -inf                   0                       
2.0806493439999998    -2.4021770411678696      -179.82139351381741     -34.76718236589398       112.87025704396119      -inf                   0                       -inf                   0                       
2.0817041920000001    -2.5183979186966292      176.45705903713957      -33.647875926292279      105.80484887234253      -inf                   0                       -inf                   0                       
2.0827594239999998    -2.4454339975289456      172.30706998401121      -32.518430061113314      90.420557281924644      -inf                   0                       -inf                   0                       
2.083815296           -2.6940619212630796      167.78830158628082      -32.457199406178333      99.005554256865281      -inf                   0                       -inf                   0                       
2.0848718079999999    -2.7420045720302815      163.38805622268487      -32.470453063423335      94.381828433267955      -inf                   0                       -inf                   0                       
2.0859287040000001    -2.7354565072926116      158.30823314584731      -32.065340693152905      96.851478919158865      -inf                   0                       -inf                   0                       
2.0869862399999999    -2.9900124373149231      153.81176170964108      -29.917045624047663      85.426562956884794      -inf                   0                       -inf                   0                       
2.0880441599999999    -2.8984908836549255      148.97815186628381      -31.018983764914356      95.398840280774138      -inf                   0                       -inf                   0                       
2.0891027200000001    -2.9793489453586703      143.70838798437075      -30.368843835239474      89.733491464585867      -inf                   0                       -inf                   0                       
2.090161792           -3.0283257532009831      136.54398861842697      -30.361078219818619      84.281401596467077      -inf                   0                       -inf                   0                       
2.0912216319999999    -3.3463303768214558      130.37842283115177      -30.777879103921787      87.009314268271808      -inf                   0                       -inf                   0                       
2.0922816000000002    -3.3480416864103937      124.09938938462854      -30.638755904159375      91.793610382232075      -inf                   0                       -inf                   0                       
2.0933423360000001    -3.5680114453154377      116.57689578270534      -29.341873908103683      82.738492248982169      -inf                   0                       -inf                   0                       
