! PocketVna 1.81  pocketvna.com
! Live measurements ((Reflection-S11, Transmission-S21) Logarithmic 2000000000-3000000000/801 calibrated)
# GHz S DB R 50
! GHz                 dBS11                    <S11                    dBS21                  <S21                    dBS12                    <S12                    dBS22                  <S22                    
2                     -3.4925783185727926      154.02542906126232      -41.87869355853902       -155.57775031040566     -inf                   0                       -inf                   0                       
2.0010140160000001    -3.906253514152219       146.6287214511394       -43.610416822271915      -135.07141554103907     -inf                   0                       -inf                   0                       
2.0020284159999999    -3.2835262961115048      140.25745535452285      -46.969483022366006      -122.48474429856331     -inf                   0                       -inf                   0                       
2.0030434559999999    -3.3836580269878085      132.16899540168151      -40.403055332328812      -146.8009697358996      -inf                   0                       -inf                   0                       
2.0040588800000001    -3.7732200739748594      124.36032561058597      -42.905016739419146      -143.35724184514504     -inf                   0                       -inf                   0                       
2.0050746880000001    -3.1357587239216094      119.20344768049212      -58.702015485197848      -76.49498656180667      -inf                   0                       -inf                   0                       
2.0060911360000002    -3.2677164456557692      110.91445619546356      -47.631050637076093      94.182047081325933      -inf                   0                       -inf                   0                       
2.007108224           -2.9719369465429346      103.84404786174186      -49.203389350761796      148.69486542126941      -inf                   0                       -inf                   0                       
2.0081258239999999    -2.9870779975709083      96.878195834910926      -43.983928053607158      108.45025688142138      -inf                   0                       -inf                   0                       
2.0091438080000001    -3.0057096741840872      89.615391322457427      -43.650635469307126      74.172180151028286      -inf                   0                       -inf                   0                       
2.0101623040000001    -2.9788859821373959      81.39827059135385       -42.681404238426659      43.201951022466801      -inf                   0                       -inf                   0                       
2.0111813120000002    -3.0162601650669791      73.242984730322604      -42.04872095216782       68.024198715516917      -inf                   0                       -inf                   0                       
2.0122010879999999    -3.397210578099795       65.548158404120059      -37.716456877199235      91.547256906945819      -inf                   0                       -inf                   0                       
2.0132209919999999    -3.2031968416747163      59.441951170811024      -44.711481862469299      25.506959829109089      -inf                   0                       -inf                   0                       
2.014241664           -3.3256816471598105      51.92632273757868       -40.976917133882807      -28.750118186659986     -inf                   0                       -inf                   0                       
2.0152628479999999    -2.9147158374741262      42.423197561427038      -39.530171771920692      -41.35948678732705      -inf                   0                       -inf                   0                       
2.016284416           -3.2837270101460687      33.298568742824607      -50.544786128768699      -14.43140561531901      -inf                   0                       -inf                   0                       
2.0173067520000001    -3.5041644854551142      32.830834302914454      -40.988352170618143      -19.675339682661612     -inf                   0                       -inf                   0                       
2.0183293440000001    -3.5195873471512291      22.803965012232077      -41.955059282690847      -26.036327692300031     -inf                   0                       -inf                   0                       
2.0193527040000001    -3.2550680219879902      14.452357249441462      -40.371877840262499      10.406276418171599      -inf                   0                       -inf                   0                       
2.0203764479999999    -2.7237489660511733      7.3995449097913273      -42.792771146818907      5.0241521151925825      -inf                   0                       -inf                   0                       
2.0214007039999999    -2.5678560453321393      1.0483190291239577      -35.681133450034409      -6.9164150509902074     -inf                   0                       -inf                   0                       
2.0224254720000001    -2.9380992639000354      -3.0776923681646222     -37.385004873450015      -12.444287686521349     -inf                   0                       -inf                   0                       
2.0234506240000001    -2.2178170815104314      -11.002576212432057     -34.749670951887239      -6.4288967687283254     -inf                   0                       -inf                   0                       
2.0244765440000001    -1.912569991949979       -15.412622868793152     -34.32808211256534       -12.821591363481291     -inf                   0                       -inf                   0                       
2.02550272            -3.325155952994618       -17.344140477265817     -33.97021691497698       -15.723060111849691     -inf                   0                       -inf                   0                       
2.026529536           -2.8922145152522702      -23.090713358257812     -34.805084634462162      -10.256146266860448     -inf                   0                       -inf                   0                       
2.02755712            -1.7671581211069434      -26.370092855185085     -33.446055731063119      -8.019529834456625      -inf                   0                       -inf                   0                       
2.0285849599999999    -1.4478662668735094      -30.256826882033966     -33.500469539030505      -8.7971992322400681     -inf                   0                       -inf                   0                       
2.0296133119999999    -1.2771661618088206      -33.822796250291496     -33.812589007624709      -14.829117827768361     -inf                   0                       -inf                   0                       
2.0306423040000001    -1.8318088749971477      -38.31008880930144      -32.832514240353888      -11.231175672178347     -inf                   0                       -inf                   0                       
2.031671808           -1.0509031883241982      -40.804382706349074     -31.232850295799469      -19.707981609273428     -inf                   0                       -inf                   0                       
2.0327016960000002    -0.98560414575706856     -43.416395182156705     -31.770175297938721      -21.598835458433655     -inf                   0                       -inf                   0                       
2.033732224           -0.97063554230945015     -46.195616849381388     -31.709388587775646      -16.267952352215822     -inf                   0                       -inf                   0                       
2.034763136           -0.7720579556070768      -48.538770285472729     -30.911545052074075      -24.971094852956092     -inf                   0                       -inf                   0                       
2.0357946880000002    -1.0971607806482309      -50.761827525006076     -31.320963024434857      -14.637072298262302     -inf                   0                       -inf                   0                       
2.03682688            -0.88303220255662773     -52.734624678378822     -29.376951176469255      -13.291221515525587     -inf                   0                       -inf                   0                       
2.0378594560000001    -1.0003668717292491      -55.141090960374349     -31.266304347821823      -13.860384305463096     -inf                   0                       -inf                   0                       
2.0388925439999999    -1.555771463222577       -61.410556920940842     -30.40099379774151       -20.893801771070603     -inf                   0                       -inf                   0                       
2.0399260159999999    -1.1043935826941744      -60.571213146911148     -31.564906544320102      -19.984013668126707     -inf                   0                       -inf                   0                       
2.040960256           -1.1819578126611359      -63.179179462759521     -31.961693488982583      -21.107878329975936     -inf                   0                       -inf                   0                       
2.0419950079999998    -1.1835276131575843      -65.256204816913481     -32.034430558244431      -28.748291252341996     -inf                   0                       -inf                   0                       
2.0430302720000002    -1.2209863719793321      -66.88895494928876      -33.532647585613816      -34.779206777605253     -inf                   0                       -inf                   0                       
2.04406592            -1.5670191103633602      -69.627342164880915     -31.309183534027149      -32.842112711473007     -inf                   0                       -inf                   0                       
2.0451020799999999    -1.5111885974099528      -70.282210512928756     -32.029339927890319      -28.573274669628635     -inf                   0                       -inf                   0                       
2.0461390079999999    -1.4443793951573429      -72.233238021803544     -31.063905142089713      -30.497068381317487     -inf                   0                       -inf                   0                       
2.0471763200000002    -1.6829244522498563      -77.191597598515571     -32.266929812657708      -37.182466767063708     -inf                   0                       -inf                   0                       
2.0482141440000001    -1.7010327820674318      -77.233384482673756     -31.074924317304763      -29.476250631578235     -inf                   0                       -inf                   0                       
2.0492524799999998    -1.6859992447417111      -79.230126248314818     -34.33988371555693       -44.255031961347903     -inf                   0                       -inf                   0                       
2.0502913280000001    -1.7021711071179273      -82.226054842839872     -33.143402572831143      -46.902691760799357     -inf                   0                       -inf                   0                       
2.0513308160000001    -1.8913207952949347      -84.036336672403024     -33.009404603392738      -49.501867723525329     -inf                   0                       -inf                   0                       
2.0523708159999998    -1.9689241106148954      -87.132825479983438     -34.908097673365425      -30.072137078713567     -inf                   0                       -inf                   0                       
2.0534112000000002    -2.2431244732991358      -90.102896232424357     -34.200521062155701      -38.83550787133197      -inf                   0                       -inf                   0                       
2.0544522239999998    -2.3559006817324981      -93.536117286520891     -36.326776813401437      -50.179339824404316     -inf                   0                       -inf                   0                       
2.055493888           -2.5313280690027455      -97.174932959497397     -35.467047175173903      -57.051338733137257     -inf                   0                       -inf                   0                       
2.0565356800000001    -2.5547434467293204      -100.61984271634647     -37.781879735906706      -86.752991847296713     -inf                   0                       -inf                   0                       
2.0575783680000002    -2.4635419312216684      -102.24716463339648     -35.976660705751982      -83.982255424418156     -inf                   0                       -inf                   0                       
2.05862144            -2.6328071611991244      -104.99925206406455     -36.270710869754339      -92.447751706764649     -inf                   0                       -inf                   0                       
2.059665152           -2.6172973146577871      -108.44454113057277     -34.888115419163469      -95.526548051372856     -inf                   0                       -inf                   0                       
2.0607092480000002    -2.8262304130100029      -111.54754404682714     -39.408454583881628      -60.312301449025732     -inf                   0                       -inf                   0                       
2.0617539840000001    -2.7683263219581882      -116.72342124135872     -39.216108312353725      -76.217364333675633     -inf                   0                       -inf                   0                       
2.0627992320000001    -2.8818039549971983      -119.82215919116412     -38.224143829632645      -87.98869436655859      -inf                   0                       -inf                   0                       
2.063844864           -2.9520473911373473      -122.82096349490122     -43.41269439057286       -44.920821998962431     -inf                   0                       -inf                   0                       
2.0648913919999998    -3.0816770186612792      -127.11589543731945     -43.395499858700816      -106.73998498416199     -inf                   0                       -inf                   0                       
2.065938048           -3.0199153653491568      -130.81942457846733     -40.233684462828371      -159.59881878055509     -inf                   0                       -inf                   0                       
2.0669853439999999    -2.8213830209964197      -134.35337050109717     -38.408391294032441      -127.07447568329276     -inf                   0                       -inf                   0                       
2.0680332799999999    -2.8675044515379562      -137.05342737231189     -41.263431853808399      -153.5307284685006      -inf                   0                       -inf                   0                       
2.069081728           -3.1054728114494008      -140.76692015340356     -37.021995286172114      -146.97997193109725     -inf                   0                       -inf                   0                       
2.07013056            -2.570530261862185       -144.59425718489422     -41.025672500148048      -163.69064378593541     -inf                   0                       -inf                   0                       
2.0711801599999999    -2.7409836379665284      -147.07613386035493     -52.648736138500936      93.769267761412507      -inf                   0                       -inf                   0                       
2.0722301440000002    -2.532678499851897       -151.17400504888843     -42.34804542697038       130.799788548538        -inf                   0                       -inf                   0                       
2.0732805120000002    -2.7261130800710029      -155.67150991777439     -36.932525337606215      121.50112274989975      -inf                   0                       -inf                   0                       
2.0743317760000002    -2.5747471873949968      -158.79294551116777     -38.893857842349888      122.82871508037925      -inf                   0                       -inf                   0                       
2.075383424           -2.4567236004099788      -161.18319266479892     -38.105463265645703      176.42811866223647      -inf                   0                       -inf                   0                       
2.0764355839999999    -2.3181741666172786      -164.57511357480888     -38.933648685169828      155.72234510601763      -inf                   0                       -inf                   0                       
2.0774881280000002    -2.4490823196314011      -168.96337792375246     -38.223246572684147      104.81381067417053      -inf                   0                       -inf                   0                       
2.078541312           -2.8207250822770451      -172.90079430132698     -34.553284015924525      93.086780433747805      -inf                   0                       -inf                   0                       
2.079595136           -2.6654453886441942      -177.2416431707538      -33.234753820213697      108.79856152227698      -inf                   0                       -inf                   0                       
2.0806493439999998    -2.3571911775677474      179.38049298807459      -34.409220172892887      114.41806990938014      -inf                   0                       -inf                   0                       
2.0817041920000001    -2.3779937566782916      177.04879491706433      -32.897538012236133      107.94521590338896      -inf                   0                       -inf                   0                       
2.0827594239999998    -2.5517899099306796      171.93559936452797      -34.34312182198844       102.6119866180867       -inf                   0                       -inf                   0                       
2.083815296           -2.6400025705843655      168.10867816927583      -35.707055385366957      105.53609408487311      -inf                   0                       -inf                   0                       
2.0848718079999999    -2.6156447021005738      163.00191182416327      -31.826974385579948      101.69201526220094      -inf                   0                       -inf                   0                       
2.0859287040000001    -2.7703456995936464      159.58211382171066      -33.208339872495607      94.355307928197092      -inf                   0                       -inf                   0                       
2.0869862399999999    -2.8103299337591587      154.31922921114577      -32.92852316650329       101.22218411888873      -inf                   0                       -inf                   0                       
2.0880441599999999    -3.2607967640301281      147.09678813675953      -29.055856663711918      90.867130264734556      -inf                   0                       -inf                   0                       
2.0891027200000001    -3.4045625662273005      140.34258045262678      -28.255373880368168      85.357166911242928      -inf                   0                       -inf                   0                       
2.090161792           -3.3994576841087341      136.23651261053183      -30.404372053542204      86.320172446725906      -inf                   0                       -inf                   0                       
2.0912216319999999    -3.6208267813611243      127.86995919800273      -29.312850535063241      81.005289515578326      -inf                   0                       -inf                   0                       
2.0922816000000002    -3.938033183702021       121.48569260798365      -27.456045594641601      80.80572102898266       -inf                   0                       -inf                   0                       
2.0933423360000001    -3.9803326607985139      114.49032748000799      -27.373740663753196      83.954451536243312      -inf                   0                       -inf                   0                       
